T2AC0 3331:955 SEGGER J-Link V6.44a Log File (0001ms, 1643ms total)
T2AC0 3331:955 DLL Compiled: Mar  8 2019 17:31:48 (0001ms, 1643ms total)
T2AC0 3331:955 Logging started @ 2025-08-04 16:21 (0001ms, 1643ms total)
T2AC0 3331:956 JLINK_SetWarnOutHandler(...) (0000ms, 1643ms total)
T2AC0 3331:956 JLINK_OpenEx(...)
Firmware: J-Link ARM-OB STM32 compiled Aug 22 2012 19:52:04
Hardware: V7.00
S/N: 20090928
Feature(s): RDI,FlashDL,FlashBP,JFlash,GDB
TELNET listener socket opened on port 19021WEBSRV 
Starting webserver (0010ms, 1653ms total)
T2AC0 3331:956 WEBSRV Webserver running on local port 19080 (0010ms, 1653ms total)
T2AC0 3331:956   returns O.K. (0010ms, 1653ms total)
T2AC0 3331:966 JLINK_GetEmuCaps()  returns 0x88EA5833 (0000ms, 1653ms total)
T2AC0 3331:966 JLINK_TIF_GetAvailable(...) (0001ms, 1654ms total)
T2AC0 3331:967 JLINK_SetErrorOutHandler(...) (0000ms, 1654ms total)
T2AC0 3331:967 JLINK_ExecCommand("ProjectFile = "D:\YQ code\test car - BT\JLinkSettings.ini"", ...).   returns 0x00 (0001ms, 1655ms total)
T2AC0 3331:996 JLINK_ExecCommand("Device = STM32F407ZE", ...). Device "STM32F407ZE" selected.  returns 0x00 (0006ms, 1661ms total)
T2AC0 3332:002 JLINK_ExecCommand("DisableConnectionTimeout", ...).   returns 0x01 (0000ms, 1661ms total)
T2AC0 3332:002 JLINK_GetHardwareVersion()  returns 0x11170 (0000ms, 1661ms total)
T2AC0 3332:002 JLINK_GetDLLVersion()  returns 64401 (0000ms, 1661ms total)
T2AC0 3332:002 JLINK_GetFirmwareString(...) (0000ms, 1661ms total)
T2AC0 3332:017 JLINK_GetDLLVersion()  returns 64401 (0000ms, 1661ms total)
T2AC0 3332:017 JLINK_GetCompileDateTime() (0000ms, 1661ms total)
T2AC0 3332:023 JLINK_GetFirmwareString(...) (0000ms, 1661ms total)
T2AC0 3332:035 JLINK_GetHardwareVersion()  returns 0x11170 (0000ms, 1661ms total)
T2AC0 3332:062 JLINK_TIF_Select(JLINKARM_TIF_SWD)  returns 0x00 (0001ms, 1662ms total)
T2AC0 3332:063 JLINK_SetSpeed(5000) (0000ms, 1662ms total)
T2AC0 3332:063 JLINK_GetId() >0x10B TIF>Found SW-DP with ID 0x2BA01477 >0x0D TIF> >0x28 TIF> >0x0D TIF> >0x28 TIF> >0x0D TIF> >0x28 TIF> >0x0D TIF> >0x28 TIF> >0x0D TIF> >0x21 TIF> >0x0D TIF> >0x28 TIF> >0x0D TIF> >0x28 TIF> >0x0D TIF> >0x28 TIF> >0x0D TIF> >0x21 TIF> >0x0D TIF> >0x21 TIF> >0x0D TIF> >0x28 TIF> >0x0D TIF> >0x21 TIF> >0x0D TIF> >0x21 TIF> >0x0D TIF> >0x28 TIF> >0x0D TIF> >0x21 TIF> >0x0D TIF> >0x21 TIF> >0x0D TIF> >0x28 TIF> >0x0D TIF> >0x21 TIF> >0x0D TIF> >0x21 TIF> >0x0D TIF>
 >0x28 TIF> >0x0D TIF> >0x21 TIF> >0x0D TIF> >0x21 TIF> >0x0D TIF> >0x28 TIF> >0x0D TIF> >0x21 TIF> >0x0D TIF> >0x21 TIF> >0x10B TIF>Found SW-DP with ID 0x2BA01477 >0x0D TIF> >0x28 TIF> >0x0D TIF> >0x28 TIF> >0x0D TIF> >0x28 TIF> >0x0D TIF> >0x28 TIF> >0x0D TIF> >0x21 TIF> >0x0D TIF> >0x28 TIF>Scanning AP map to find all available APs >0x0D TIF> >0x28 TIF> >0x0D TIF> >0x21 TIF> >0x0D TIF> >0x21 TIF> >0x0D TIF> >0x28 TIF> >0x0D TIF> >0x21 TIF> >0x0D TIF> >0x21 TIF>
AP[1]: Stopped AP scan as end of AP map has been reachedAP[0]: AHB-AP (IDR: 0x24770011)Iterating through AP map to find AHB-AP to use >0x42 TIF> >0x28 TIF> >0x0D TIF> >0x28 TIF> >0x0D TIF> >0x21 TIF> >0x0D TIF> >0x21 TIF> >0x42 TIF> >0x28 TIF> >0x0D TIF> >0x28 TIF> >0x0D TIF> >0x28 TIF> >0x0D TIF> >0x21 TIF> >0x0D TIF> >0x21 TIF>AP[0]: Core foundAP[0]: AHB-AP ROM base: 0xE00FF000 >0x0D TIF> >0x28 TIF> >0x0D TIF> >0x28 TIF> >0x0D TIF> >0x28 TIF> >0x0D TIF> >0x21 TIF> >0x0D TIF> >0x21 TIF>
CPUID register: 0x410FC241. Implementer code: 0x41 (ARM)Found Cortex-M4 r0p1, Little endian. -- Max. mem block: 0x00002C18 -- CPU_ReadMem(4 bytes @ 0xE000EDF0) -- CPU_WriteMem(4 bytes @ 0xE000EDF0) -- CPU_ReadMem(4 bytes @ 0xE0002000)FPUnit: 6 code (BP) slots and 2 literal slots -- CPU_ReadMem(4 bytes @ 0xE000EDFC) -- CPU_WriteMem(4 bytes @ 0xE000EDFC) -- CPU_ReadMem(4 bytes @ 0xE0001000) -- CPU_WriteMem(4 bytes @ 0xE0001000) -- CPU_ReadMem(4 bytes @ 0xE000ED88) -- CPU_WriteMem(4 bytes @ 0xE000ED88)
 -- CPU_ReadMem(4 bytes @ 0xE000ED88) -- CPU_WriteMem(4 bytes @ 0xE000ED88)CoreSight components:ROMTbl[0] @ E00FF000 -- CPU_ReadMem(16 bytes @ 0xE00FF000) -- CPU_ReadMem(16 bytes @ 0xE000EFF0) -- CPU_ReadMem(16 bytes @ 0xE000EFE0)ROMTbl[0][0]: E000E000, CID: B105E00D, PID: 000BB00C SCS-M7 -- CPU_ReadMem(16 bytes @ 0xE0001FF0) -- CPU_ReadMem(16 bytes @ 0xE0001FE0)ROMTbl[0][1]: E0001000, CID: B105E00D, PID: 003BB002 DWT -- CPU_ReadMem(16 bytes @ 0xE0002FF0) -- CPU_ReadMem(16 bytes @ 0xE0002FE0)
ROMTbl[0][2]: E0002000, CID: B105E00D, PID: 002BB003 FPB -- CPU_ReadMem(16 bytes @ 0xE0000FF0) -- CPU_ReadMem(16 bytes @ 0xE0000FE0)ROMTbl[0][3]: E0000000, CID: B105E00D, PID: 003BB001 ITM -- CPU_ReadMem(16 bytes @ 0xE00FF010) -- CPU_ReadMem(16 bytes @ 0xE0040FF0) -- CPU_ReadMem(16 bytes @ 0xE0040FE0)ROMTbl[0][4]: E0040000, CID: B105900D, PID: 000BB9A1 TPIU -- CPU_ReadMem(16 bytes @ 0xE0041FF0) -- CPU_ReadMem(16 bytes @ 0xE0041FE0)ROMTbl[0][5]: E0041000, CID: B105900D, PID: 000BB925 ETM >0x0D TIF>
 >0x21 TIF>  returns 0x2BA01477 (0244ms, 1906ms total)
T2AC0 3332:307 JLINK_GetDLLVersion()  returns 64401 (0000ms, 1906ms total)
T2AC0 3332:307 JLINK_CORE_GetFound()  returns 0xE0000FF (0000ms, 1906ms total)
T2AC0 3332:307 JLINK_GetDebugInfo(0x100 = JLINKARM_ROM_TABLE_ADDR_INDEX) -- Value=0xE00FF000  returns 0x00 (0000ms, 1906ms total)
T2AC0 3332:310 JLINK_GetDebugInfo(0x100 = JLINKARM_ROM_TABLE_ADDR_INDEX) -- Value=0xE00FF000  returns 0x00 (0000ms, 1906ms total)
T2AC0 3332:310 JLINK_GetDebugInfo(0x101 = JLINKARM_DEBUG_INFO_ETM_ADDR_INDEX) -- Value=0xE0041000  returns 0x00 (0000ms, 1906ms total)
T2AC0 3332:310 JLINK_ReadMemEx(0xE0041FD0, 0x0020 Bytes, ..., Flags = 0x02000004) -- CPU_ReadMem(32 bytes @ 0xE0041FD0) - Data: 04 00 00 00 00 00 00 00 00 00 00 00 00 00 00 00 ...  returns 0x20 (0001ms, 1907ms total)
T2AC0 3332:311 JLINK_GetDebugInfo(0x102 = JLINKARM_DEBUG_INFO_MTB_ADDR_INDEX) -- Value=0x00000000  returns 0x00 (0000ms, 1907ms total)
T2AC0 3332:311 JLINK_GetDebugInfo(0x103 = JLINKARM_DEBUG_INFO_TPIU_ADDR_INDEX) -- Value=0xE0040000  returns 0x00 (0000ms, 1907ms total)
T2AC0 3332:311 JLINK_GetDebugInfo(0x104 = JLINKARM_DEBUG_INFO_ITM_ADDR_INDEX) -- Value=0xE0000000  returns 0x00 (0000ms, 1907ms total)
T2AC0 3332:311 JLINK_GetDebugInfo(0x105 = JLINKARM_DEBUG_INFO_DWT_ADDR_INDEX) -- Value=0xE0001000  returns 0x00 (0000ms, 1907ms total)
T2AC0 3332:311 JLINK_GetDebugInfo(0x106 = JLINKARM_DEBUG_INFO_FPB_ADDR_INDEX) -- Value=0xE0002000  returns 0x00 (0000ms, 1907ms total)
T2AC0 3332:311 JLINK_GetDebugInfo(0x107 = JLINKARM_DEBUG_INFO_NVIC_ADDR_INDEX) -- Value=0xE000E000  returns 0x00 (0000ms, 1907ms total)
T2AC0 3332:311 JLINK_GetDebugInfo(0x10C = JLINKARM_DEBUG_INFO_DBG_ADDR_INDEX) -- Value=0xE000EDF0  returns 0x00 (0000ms, 1907ms total)
T2AC0 3332:311 JLINK_GetDebugInfo(0x01 = Unknown) -- Value=0x00000001  returns 0x00 (0000ms, 1907ms total)
T2AC0 3332:311 JLINK_ReadMemU32(0xE000ED00, 0x0001 Items, ...) -- CPU_ReadMem(4 bytes @ 0xE000ED00) - Data: 41 C2 0F 41  returns 1 (0000ms, 1907ms total)
T2AC0 3332:311 JLINK_GetDebugInfo(0x10F = JLINKARM_DEBUG_INFO_HAS_CORTEX_M_SECURITY_EXT_INDEX) -- Value=0x00000000  returns 0x00 (0000ms, 1907ms total)
T2AC0 3332:311 JLINK_SetResetType(JLINKARM_CM3_RESET_TYPE_NORMAL)  returns JLINKARM_CM3_RESET_TYPE_NORMAL (0000ms, 1907ms total)
T2AC0 3332:311 JLINK_Reset() -- CPU is running -- CPU_WriteMem(4 bytes @ 0xE000EDF0) -- CPU is running -- CPU_WriteMem(4 bytes @ 0xE000EDFC)Reset: Halt core after reset via DEMCR.VC_CORERESET. >0x35 TIF>Reset: Reset device via AIRCR.SYSRESETREQ. -- CPU is running -- CPU_WriteMem(4 bytes @ 0xE000ED0C) >0x0D TIF> >0x28 TIF> -- CPU_ReadMem(4 bytes @ 0xE000EDF0) -- CPU_ReadMem(4 bytes @ 0xE000EDF0) -- CPU is running -- CPU_WriteMem(4 bytes @ 0xE000EDF0) -- CPU is running -- CPU_WriteMem(4 bytes @ 0xE000EDFC)
 -- CPU_ReadMem(4 bytes @ 0xE000EDF0) -- CPU_WriteMem(4 bytes @ 0xE0002000) -- CPU_ReadMem(4 bytes @ 0xE000EDFC) -- CPU_ReadMem(4 bytes @ 0xE0001000) (0076ms, 1983ms total)
T2AC0 3332:387 JLINK_Halt()  returns 0x00 (0000ms, 1983ms total)
T2AC0 3332:387 JLINK_ReadMemU32(0xE000EDF0, 0x0001 Items, ...) -- CPU_ReadMem(4 bytes @ 0xE000EDF0) - Data: 03 00 03 00  returns 1 (0001ms, 1984ms total)
T2AC0 3332:388 JLINK_WriteU32(0xE000EDF0, 0xA05F0003) -- CPU_WriteMem(4 bytes @ 0xE000EDF0)  returns 0 (0000ms, 1984ms total)
T2AC0 3332:388 JLINK_WriteU32(0xE000EDFC, 0x01000000) -- CPU_WriteMem(4 bytes @ 0xE000EDFC)  returns 0 (0001ms, 1985ms total)
T2AC0 3332:416 JLINK_GetHWStatus(...)  returns 0x00 (0000ms, 1985ms total)
T2AC0 3332:428 JLINK_GetNumBPUnits(Type = 0xFFFFFF00)  returns 0x06 (0000ms, 1985ms total)
T2AC0 3332:428 JLINK_GetNumBPUnits(Type = 0xF0)  returns 0x2000 (0000ms, 1985ms total)
T2AC0 3332:428 JLINK_GetNumWPUnits()  returns 0x04 (0000ms, 1985ms total)
T2AC0 3332:434 JLINK_GetSpeed()  returns 0xFA0 (0000ms, 1985ms total)
T2AC0 3332:452 JLINK_ReadMemU32(0xE000E004, 0x0001 Items, ...) -- CPU_ReadMem(4 bytes @ 0xE000E004) - Data: 02 00 00 00  returns 1 (0000ms, 1985ms total)
T2AC0 3332:452 JLINK_ReadMemU32(0xE000E004, 0x0001 Items, ...) -- CPU_ReadMem(4 bytes @ 0xE000E004) - Data: 02 00 00 00  returns 1 (0001ms, 1986ms total)
T2AC0 3332:453 JLINK_WriteMemEx(0xE0001000, 0x001C Bytes, ..., Flags = 0x02000004) - Data: 01 00 00 00 00 00 00 00 00 00 00 00 00 00 00 00 ... -- CPU_WriteMem(28 bytes @ 0xE0001000)  returns 0x1C (0001ms, 1987ms total)
T2AC0 3332:454 JLINK_Halt()  returns 0x00 (0000ms, 1987ms total)
T2AC0 3332:454 JLINK_IsHalted()  returns TRUE (0000ms, 1987ms total)
T2AC0 3332:456 JLINK_WriteMem(0x20000000, 0x0180 Bytes, ...) - Data: 00 BE 0A E0 0D 78 2D 06 68 40 08 24 40 00 00 D3 ... -- CPU_WriteMem(384 bytes @ 0x20000000)  returns 0x180 (0006ms, 1993ms total)
T2AC0 3332:462 JLINK_WriteReg(R0, 0x08000000)  returns 0x00 (0000ms, 1993ms total)
T2AC0 3332:462 JLINK_WriteReg(R1, 0x00B71B00)  returns 0x00 (0000ms, 1993ms total)
T2AC0 3332:462 JLINK_WriteReg(R2, 0x00000001)  returns 0x00 (0000ms, 1993ms total)
T2AC0 3332:462 JLINK_WriteReg(R3, 0x00000000)  returns 0x00 (0000ms, 1993ms total)
T2AC0 3332:462 JLINK_WriteReg(R4, 0x00000000)  returns 0x00 (0000ms, 1993ms total)
T2AC0 3332:462 JLINK_WriteReg(R5, 0x00000000)  returns 0x00 (0000ms, 1993ms total)
T2AC0 3332:462 JLINK_WriteReg(R6, 0x00000000)  returns 0x00 (0000ms, 1993ms total)
T2AC0 3332:462 JLINK_WriteReg(R7, 0x00000000)  returns 0x00 (0000ms, 1993ms total)
T2AC0 3332:462 JLINK_WriteReg(R8, 0x00000000)  returns 0x00 (0000ms, 1993ms total)
T2AC0 3332:462 JLINK_WriteReg(R9, 0x2000017C)  returns 0x00 (0000ms, 1993ms total)
T2AC0 3332:462 JLINK_WriteReg(R10, 0x00000000)  returns 0x00 (0000ms, 1993ms total)
T2AC0 3332:462 JLINK_WriteReg(R11, 0x00000000)  returns 0x00 (0000ms, 1993ms total)
T2AC0 3332:462 JLINK_WriteReg(R12, 0x00000000)  returns 0x00 (0000ms, 1993ms total)
T2AC0 3332:462 JLINK_WriteReg(R13 (SP), 0x20001000)  returns 0x00 (0001ms, 1994ms total)
T2AC0 3332:463 JLINK_WriteReg(R14, 0x20000001)  returns 0x00 (0000ms, 1994ms total)
T2AC0 3332:463 JLINK_WriteReg(R15 (PC), 0x20000054)  returns 0x00 (0000ms, 1994ms total)
T2AC0 3332:463 JLINK_WriteReg(XPSR, 0x01000000)  returns 0x00 (0000ms, 1994ms total)
T2AC0 3332:463 JLINK_WriteReg(MSP, 0x20001000)  returns 0x00 (0000ms, 1994ms total)
T2AC0 3332:463 JLINK_WriteReg(PSP, 0x20001000)  returns 0x00 (0000ms, 1994ms total)
T2AC0 3332:463 JLINK_WriteReg(CFBP, 0x00000000)  returns 0x00 (0000ms, 1994ms total)
T2AC0 3332:463 JLINK_SetBPEx(Addr = 0x20000000, Type = 0xFFFFFFF2) -- CPU_ReadMem(2 bytes @ 0x20000000)  returns 0x00000001 (0000ms, 1994ms total)
T2AC0 3332:463 JLINK_Go() -- CPU_WriteMem(2 bytes @ 0x20000000) -- CPU_ReadMem(4 bytes @ 0xE0001000) -- CPU_WriteMem(4 bytes @ 0xE0002008) -- CPU_WriteMem(4 bytes @ 0xE000200C) -- CPU_WriteMem(4 bytes @ 0xE0002010) -- CPU_WriteMem(4 bytes @ 0xE0002014) -- CPU_WriteMem(4 bytes @ 0xE0002018) -- CPU_WriteMem(4 bytes @ 0xE000201C) -- CPU_WriteMem(4 bytes @ 0xE0001004) (0007ms, 2001ms total)
T2AC0 3332:470 JLINK_IsHalted() -- CPU_ReadMem(2 bytes @ 0x20000000)  returns TRUE (0004ms, 2005ms total)
T2AC0 3332:474 JLINK_ReadReg(R15 (PC))  returns 0x20000000 (0000ms, 2001ms total)
T2AC0 3332:474 JLINK_ClrBPEx(BPHandle = 0x00000001)  returns 0x00 (0000ms, 2001ms total)
T2AC0 3332:474 JLINK_ReadReg(R0)  returns 0x00000000 (0000ms, 2001ms total)
T2AC0 3332:476 JLINK_WriteReg(R0, 0x08000000)  returns 0x00 (0000ms, 2001ms total)
T2AC0 3332:476 JLINK_WriteReg(R1, 0x00004000)  returns 0x00 (0000ms, 2001ms total)
T2AC0 3332:476 JLINK_WriteReg(R2, 0x000000FF)  returns 0x00 (0000ms, 2001ms total)
T2AC0 3332:476 JLINK_WriteReg(R3, 0x00000000)  returns 0x00 (0000ms, 2001ms total)
T2AC0 3332:476 JLINK_WriteReg(R4, 0x00000000)  returns 0x00 (0000ms, 2001ms total)
T2AC0 3332:476 JLINK_WriteReg(R5, 0x00000000)  returns 0x00 (0000ms, 2001ms total)
T2AC0 3332:476 JLINK_WriteReg(R6, 0x00000000)  returns 0x00 (0000ms, 2001ms total)
T2AC0 3332:476 JLINK_WriteReg(R7, 0x00000000)  returns 0x00 (0000ms, 2001ms total)
T2AC0 3332:476 JLINK_WriteReg(R8, 0x00000000)  returns 0x00 (0000ms, 2001ms total)
T2AC0 3332:476 JLINK_WriteReg(R9, 0x2000017C)  returns 0x00 (0000ms, 2001ms total)
T2AC0 3332:476 JLINK_WriteReg(R10, 0x00000000)  returns 0x00 (0000ms, 2001ms total)
T2AC0 3332:476 JLINK_WriteReg(R11, 0x00000000)  returns 0x00 (0000ms, 2001ms total)
T2AC0 3332:476 JLINK_WriteReg(R12, 0x00000000)  returns 0x00 (0000ms, 2001ms total)
T2AC0 3332:476 JLINK_WriteReg(R13 (SP), 0x20001000)  returns 0x00 (0000ms, 2001ms total)
T2AC0 3332:476 JLINK_WriteReg(R14, 0x20000001)  returns 0x00 (0000ms, 2001ms total)
T2AC0 3332:476 JLINK_WriteReg(R15 (PC), 0x20000020)  returns 0x00 (0000ms, 2001ms total)
T2AC0 3332:476 JLINK_WriteReg(XPSR, 0x01000000)  returns 0x00 (0000ms, 2001ms total)
T2AC0 3332:476 JLINK_WriteReg(MSP, 0x20001000)  returns 0x00 (0000ms, 2001ms total)
T2AC0 3332:476 JLINK_WriteReg(PSP, 0x20001000)  returns 0x00 (0000ms, 2001ms total)
T2AC0 3332:476 JLINK_WriteReg(CFBP, 0x00000000)  returns 0x00 (0000ms, 2001ms total)
T2AC0 3332:476 JLINK_SetBPEx(Addr = 0x20000000, Type = 0xFFFFFFF2)  returns 0x00000002 (0000ms, 2001ms total)
T2AC0 3332:476 JLINK_Go() -- CPU_ReadMem(4 bytes @ 0xE0001000) (0004ms, 2005ms total)
T2AC0 3332:480 JLINK_IsHalted() -- CPU_ReadMem(2 bytes @ 0x20000000)  returns TRUE (0002ms, 2007ms total)
T2AC0 3332:482 JLINK_ReadReg(R15 (PC))  returns 0x20000000 (0000ms, 2005ms total)
T2AC0 3332:482 JLINK_ClrBPEx(BPHandle = 0x00000002)  returns 0x00 (0000ms, 2005ms total)
T2AC0 3332:482 JLINK_ReadReg(R0)  returns 0x00000001 (0000ms, 2005ms total)
T2AC0 3332:482 JLINK_WriteReg(R0, 0x08000000)  returns 0x00 (0000ms, 2005ms total)
T2AC0 3332:482 JLINK_WriteReg(R1, 0x00004000)  returns 0x00 (0000ms, 2005ms total)
T2AC0 3332:482 JLINK_WriteReg(R2, 0x000000FF)  returns 0x00 (0000ms, 2005ms total)
T2AC0 3332:482 JLINK_WriteReg(R3, 0x00000000)  returns 0x00 (0000ms, 2005ms total)
T2AC0 3332:482 JLINK_WriteReg(R4, 0x00000000)  returns 0x00 (0000ms, 2005ms total)
T2AC0 3332:482 JLINK_WriteReg(R5, 0x00000000)  returns 0x00 (0000ms, 2005ms total)
T2AC0 3332:482 JLINK_WriteReg(R6, 0x00000000)  returns 0x00 (0000ms, 2005ms total)
T2AC0 3332:482 JLINK_WriteReg(R7, 0x00000000)  returns 0x00 (0000ms, 2005ms total)
T2AC0 3332:482 JLINK_WriteReg(R8, 0x00000000)  returns 0x00 (0000ms, 2005ms total)
T2AC0 3332:482 JLINK_WriteReg(R9, 0x2000017C)  returns 0x00 (0000ms, 2005ms total)
T2AC0 3332:482 JLINK_WriteReg(R10, 0x00000000)  returns 0x00 (0000ms, 2005ms total)
T2AC0 3332:482 JLINK_WriteReg(R11, 0x00000000)  returns 0x00 (0000ms, 2005ms total)
T2AC0 3332:482 JLINK_WriteReg(R12, 0x00000000)  returns 0x00 (0000ms, 2005ms total)
T2AC0 3332:482 JLINK_WriteReg(R13 (SP), 0x20001000)  returns 0x00 (0000ms, 2005ms total)
T2AC0 3332:482 JLINK_WriteReg(R14, 0x20000001)  returns 0x00 (0000ms, 2005ms total)
T2AC0 3332:482 JLINK_WriteReg(R15 (PC), 0x200000BC)  returns 0x00 (0000ms, 2005ms total)
T2AC0 3332:482 JLINK_WriteReg(XPSR, 0x01000000)  returns 0x00 (0000ms, 2005ms total)
T2AC0 3332:482 JLINK_WriteReg(MSP, 0x20001000)  returns 0x00 (0000ms, 2005ms total)
T2AC0 3332:482 JLINK_WriteReg(PSP, 0x20001000)  returns 0x00 (0000ms, 2005ms total)
T2AC0 3332:482 JLINK_WriteReg(CFBP, 0x00000000)  returns 0x00 (0000ms, 2005ms total)
T2AC0 3332:482 JLINK_SetBPEx(Addr = 0x20000000, Type = 0xFFFFFFF2)  returns 0x00000003 (0000ms, 2005ms total)
T2AC0 3332:482 JLINK_Go() -- CPU_ReadMem(4 bytes @ 0xE0001000) (0004ms, 2009ms total)
T2AC0 3332:486 JLINK_IsHalted()  returns FALSE (0000ms, 2009ms total)
T2AC0 3332:581 JLINK_IsHalted()  returns FALSE (0000ms, 2009ms total)
T2AC0 3332:583 JLINK_IsHalted()  returns FALSE (0000ms, 2009ms total)
T2AC0 3332:585 JLINK_IsHalted()  returns FALSE (0000ms, 2009ms total)
T2AC0 3332:587 JLINK_IsHalted()  returns FALSE (0000ms, 2009ms total)
T2AC0 3332:589 JLINK_IsHalted()  returns FALSE (0000ms, 2009ms total)
T2AC0 3332:591 JLINK_IsHalted()  returns FALSE (0000ms, 2009ms total)
T2AC0 3332:608 JLINK_IsHalted()  returns FALSE (0000ms, 2009ms total)
T2AC0 3332:610 JLINK_IsHalted()  returns FALSE (0000ms, 2009ms total)
T2AC0 3332:612 JLINK_IsHalted()  returns FALSE (0000ms, 2009ms total)
T2AC0 3332:614 JLINK_IsHalted()  returns FALSE (0000ms, 2009ms total)
T2AC0 3332:616 JLINK_IsHalted()  returns FALSE (0000ms, 2009ms total)
T2AC0 3332:618 JLINK_IsHalted()  returns FALSE (0000ms, 2009ms total)
T2AC0 3332:620 JLINK_IsHalted()  returns FALSE (0000ms, 2009ms total)
T2AC0 3332:622 JLINK_IsHalted()  returns FALSE (0000ms, 2009ms total)
T2AC0 3332:638 JLINK_IsHalted()  returns FALSE (0000ms, 2009ms total)
T2AC0 3332:640 JLINK_IsHalted()  returns FALSE (0000ms, 2009ms total)
T2AC0 3332:650 JLINK_IsHalted()  returns FALSE (0000ms, 2009ms total)
T2AC0 3332:652 JLINK_IsHalted()  returns FALSE (0000ms, 2009ms total)
T2AC0 3332:654 JLINK_IsHalted()  returns FALSE (0000ms, 2009ms total)
T2AC0 3332:656 JLINK_IsHalted()  returns FALSE (0000ms, 2009ms total)
T2AC0 3332:658 JLINK_IsHalted()  returns FALSE (0000ms, 2009ms total)
T2AC0 3332:660 JLINK_IsHalted()  returns FALSE (0000ms, 2009ms total)
T2AC0 3332:662 JLINK_IsHalted()  returns FALSE (0000ms, 2009ms total)
T2AC0 3332:664 JLINK_IsHalted()  returns FALSE (0000ms, 2009ms total)
T2AC0 3332:666 JLINK_IsHalted()  returns FALSE (0000ms, 2009ms total)
T2AC0 3332:668 JLINK_IsHalted()  returns FALSE (0000ms, 2009ms total)
T2AC0 3332:670 JLINK_IsHalted()  returns FALSE (0000ms, 2009ms total)
T2AC0 3332:672 JLINK_IsHalted()  returns FALSE (0000ms, 2009ms total)
T2AC0 3332:683 JLINK_IsHalted()  returns FALSE (0000ms, 2009ms total)
T2AC0 3332:685 JLINK_IsHalted()  returns FALSE (0000ms, 2009ms total)
T2AC0 3332:687 JLINK_IsHalted()  returns FALSE (0000ms, 2009ms total)
T2AC0 3332:697 JLINK_IsHalted()  returns FALSE (0000ms, 2009ms total)
T2AC0 3332:699 JLINK_IsHalted()  returns FALSE (0000ms, 2009ms total)
T2AC0 3332:701 JLINK_IsHalted()  returns FALSE (0000ms, 2009ms total)
T2AC0 3332:703 JLINK_IsHalted()  returns FALSE (0001ms, 2010ms total)
T2AC0 3332:709 JLINK_IsHalted()  returns FALSE (0000ms, 2009ms total)
T2AC0 3332:711 JLINK_IsHalted()  returns FALSE (0000ms, 2009ms total)
T2AC0 3332:713 JLINK_IsHalted()  returns FALSE (0000ms, 2009ms total)
T2AC0 3332:715 JLINK_IsHalted()  returns FALSE (0000ms, 2009ms total)
T2AC0 3332:717 JLINK_IsHalted()  returns FALSE (0000ms, 2009ms total)
T2AC0 3332:719 JLINK_IsHalted()  returns FALSE (0000ms, 2009ms total)
T2AC0 3332:734 JLINK_IsHalted()  returns FALSE (0000ms, 2009ms total)
T2AC0 3332:740 JLINK_IsHalted()  returns FALSE (0000ms, 2009ms total)
T2AC0 3332:742 JLINK_IsHalted()  returns FALSE (0000ms, 2009ms total)
T2AC0 3332:744 JLINK_IsHalted()  returns FALSE (0000ms, 2009ms total)
T2AC0 3332:746 JLINK_IsHalted()  returns FALSE (0000ms, 2009ms total)
T2AC0 3332:748 JLINK_IsHalted()  returns FALSE (0000ms, 2009ms total)
T2AC0 3332:750 JLINK_IsHalted()  returns FALSE (0000ms, 2009ms total)
T2AC0 3332:757 JLINK_IsHalted()  returns FALSE (0000ms, 2009ms total)
T2AC0 3332:759 JLINK_IsHalted()  returns FALSE (0000ms, 2009ms total)
T2AC0 3332:761 JLINK_IsHalted()  returns FALSE (0000ms, 2009ms total)
T2AC0 3332:763 JLINK_IsHalted()  returns FALSE (0000ms, 2009ms total)
T2AC0 3332:765 JLINK_IsHalted()  returns FALSE (0000ms, 2009ms total)
T2AC0 3332:780 JLINK_IsHalted()  returns FALSE (0000ms, 2009ms total)
T2AC0 3332:782 JLINK_IsHalted()  returns FALSE (0000ms, 2009ms total)
T2AC0 3332:789 JLINK_IsHalted()  returns FALSE (0000ms, 2009ms total)
T2AC0 3332:791 JLINK_IsHalted()  returns FALSE (0000ms, 2009ms total)
T2AC0 3332:793 JLINK_IsHalted()  returns FALSE (0000ms, 2009ms total)
T2AC0 3332:795 JLINK_IsHalted()  returns FALSE (0000ms, 2009ms total)
T2AC0 3332:797 JLINK_IsHalted()  returns FALSE (0000ms, 2009ms total)
T2AC0 3332:805 JLINK_IsHalted()  returns FALSE (0000ms, 2009ms total)
T2AC0 3332:807 JLINK_IsHalted()  returns FALSE (0000ms, 2009ms total)
T2AC0 3332:809 JLINK_IsHalted()  returns FALSE (0000ms, 2009ms total)
T2AC0 3332:811 JLINK_IsHalted()  returns FALSE (0000ms, 2009ms total)
T2AC0 3332:813 JLINK_IsHalted()  returns FALSE (0000ms, 2009ms total)
T2AC0 3332:828 JLINK_IsHalted() -- CPU_ReadMem(2 bytes @ 0x20000000)  returns TRUE (0003ms, 2012ms total)
T2AC0 3332:831 JLINK_ReadReg(R15 (PC))  returns 0x20000000 (0000ms, 2009ms total)
T2AC0 3332:831 JLINK_ClrBPEx(BPHandle = 0x00000003)  returns 0x00 (0000ms, 2009ms total)
T2AC0 3332:831 JLINK_ReadReg(R0)  returns 0x00000000 (0000ms, 2009ms total)
T2AC0 3332:832 JLINK_WriteReg(R0, 0x00000001)  returns 0x00 (0000ms, 2009ms total)
T2AC0 3332:832 JLINK_WriteReg(R1, 0x00004000)  returns 0x00 (0000ms, 2009ms total)
T2AC0 3332:832 JLINK_WriteReg(R2, 0x000000FF)  returns 0x00 (0000ms, 2009ms total)
T2AC0 3332:832 JLINK_WriteReg(R3, 0x00000000)  returns 0x00 (0000ms, 2009ms total)
T2AC0 3332:832 JLINK_WriteReg(R4, 0x00000000)  returns 0x00 (0000ms, 2009ms total)
T2AC0 3332:832 JLINK_WriteReg(R5, 0x00000000)  returns 0x00 (0000ms, 2009ms total)
T2AC0 3332:832 JLINK_WriteReg(R6, 0x00000000)  returns 0x00 (0000ms, 2009ms total)
T2AC0 3332:832 JLINK_WriteReg(R7, 0x00000000)  returns 0x00 (0000ms, 2009ms total)
T2AC0 3332:832 JLINK_WriteReg(R8, 0x00000000)  returns 0x00 (0000ms, 2009ms total)
T2AC0 3332:832 JLINK_WriteReg(R9, 0x2000017C)  returns 0x00 (0000ms, 2009ms total)
T2AC0 3332:832 JLINK_WriteReg(R10, 0x00000000)  returns 0x00 (0000ms, 2009ms total)
T2AC0 3332:832 JLINK_WriteReg(R11, 0x00000000)  returns 0x00 (0000ms, 2009ms total)
T2AC0 3332:832 JLINK_WriteReg(R12, 0x00000000)  returns 0x00 (0000ms, 2009ms total)
T2AC0 3332:832 JLINK_WriteReg(R13 (SP), 0x20001000)  returns 0x00 (0000ms, 2009ms total)
T2AC0 3332:832 JLINK_WriteReg(R14, 0x20000001)  returns 0x00 (0000ms, 2009ms total)
T2AC0 3332:832 JLINK_WriteReg(R15 (PC), 0x20000082)  returns 0x00 (0000ms, 2009ms total)
T2AC0 3332:832 JLINK_WriteReg(XPSR, 0x01000000)  returns 0x00 (0000ms, 2009ms total)
T2AC0 3332:832 JLINK_WriteReg(MSP, 0x20001000)  returns 0x00 (0000ms, 2009ms total)
T2AC0 3332:832 JLINK_WriteReg(PSP, 0x20001000)  returns 0x00 (0000ms, 2009ms total)
T2AC0 3332:832 JLINK_WriteReg(CFBP, 0x00000000)  returns 0x00 (0000ms, 2009ms total)
T2AC0 3332:832 JLINK_SetBPEx(Addr = 0x20000000, Type = 0xFFFFFFF2)  returns 0x00000004 (0000ms, 2009ms total)
T2AC0 3332:832 JLINK_Go() -- CPU_ReadMem(4 bytes @ 0xE0001000) (0004ms, 2013ms total)
T2AC0 3332:836 JLINK_IsHalted() -- CPU_ReadMem(2 bytes @ 0x20000000)  returns TRUE (0004ms, 2017ms total)
T2AC0 3332:840 JLINK_ReadReg(R15 (PC))  returns 0x20000000 (0000ms, 2013ms total)
T2AC0 3332:840 JLINK_ClrBPEx(BPHandle = 0x00000004)  returns 0x00 (0000ms, 2013ms total)
T2AC0 3332:840 JLINK_ReadReg(R0)  returns 0x00000000 (0000ms, 2013ms total)
T2AC0 3332:921 JLINK_WriteMem(0x20000000, 0x0180 Bytes, ...) - Data: 00 BE 0A E0 0D 78 2D 06 68 40 08 24 40 00 00 D3 ... -- CPU_WriteMem(384 bytes @ 0x20000000)  returns 0x180 (0005ms, 2018ms total)
T2AC0 3332:926 JLINK_WriteReg(R0, 0x08000000)  returns 0x00 (0000ms, 2018ms total)
T2AC0 3332:926 JLINK_WriteReg(R1, 0x00B71B00)  returns 0x00 (0000ms, 2018ms total)
T2AC0 3332:926 JLINK_WriteReg(R2, 0x00000002)  returns 0x00 (0000ms, 2018ms total)
T2AC0 3332:926 JLINK_WriteReg(R3, 0x00000000)  returns 0x00 (0000ms, 2018ms total)
T2AC0 3332:926 JLINK_WriteReg(R4, 0x00000000)  returns 0x00 (0000ms, 2018ms total)
T2AC0 3332:926 JLINK_WriteReg(R5, 0x00000000)  returns 0x00 (0000ms, 2018ms total)
T2AC0 3332:926 JLINK_WriteReg(R6, 0x00000000)  returns 0x00 (0000ms, 2018ms total)
T2AC0 3332:926 JLINK_WriteReg(R7, 0x00000000)  returns 0x00 (0000ms, 2018ms total)
T2AC0 3332:926 JLINK_WriteReg(R8, 0x00000000)  returns 0x00 (0000ms, 2018ms total)
T2AC0 3332:926 JLINK_WriteReg(R9, 0x2000017C)  returns 0x00 (0000ms, 2018ms total)
T2AC0 3332:926 JLINK_WriteReg(R10, 0x00000000)  returns 0x00 (0000ms, 2018ms total)
T2AC0 3332:926 JLINK_WriteReg(R11, 0x00000000)  returns 0x00 (0000ms, 2018ms total)
T2AC0 3332:926 JLINK_WriteReg(R12, 0x00000000)  returns 0x00 (0000ms, 2018ms total)
T2AC0 3332:926 JLINK_WriteReg(R13 (SP), 0x20001000)  returns 0x00 (0000ms, 2018ms total)
T2AC0 3332:926 JLINK_WriteReg(R14, 0x20000001)  returns 0x00 (0000ms, 2018ms total)
T2AC0 3332:926 JLINK_WriteReg(R15 (PC), 0x20000054)  returns 0x00 (0000ms, 2018ms total)
T2AC0 3332:926 JLINK_WriteReg(XPSR, 0x01000000)  returns 0x00 (0000ms, 2018ms total)
T2AC0 3332:926 JLINK_WriteReg(MSP, 0x20001000)  returns 0x00 (0000ms, 2018ms total)
T2AC0 3332:926 JLINK_WriteReg(PSP, 0x20001000)  returns 0x00 (0000ms, 2018ms total)
T2AC0 3332:926 JLINK_WriteReg(CFBP, 0x00000000)  returns 0x00 (0000ms, 2018ms total)
T2AC0 3332:926 JLINK_SetBPEx(Addr = 0x20000000, Type = 0xFFFFFFF2) -- CPU_ReadMem(2 bytes @ 0x20000000)  returns 0x00000005 (0001ms, 2019ms total)
T2AC0 3332:927 JLINK_Go() -- CPU_WriteMem(2 bytes @ 0x20000000) -- CPU_ReadMem(4 bytes @ 0xE0001000) (0004ms, 2023ms total)
T2AC0 3332:931 JLINK_IsHalted() -- CPU_ReadMem(2 bytes @ 0x20000000)  returns TRUE (0004ms, 2027ms total)
T2AC0 3332:935 JLINK_ReadReg(R15 (PC))  returns 0x20000000 (0000ms, 2023ms total)
T2AC0 3332:935 JLINK_ClrBPEx(BPHandle = 0x00000005)  returns 0x00 (0000ms, 2023ms total)
T2AC0 3332:935 JLINK_ReadReg(R0)  returns 0x00000000 (0000ms, 2023ms total)
T2AC0 3332:936 JLINK_WriteMem(0x20000180, 0x0280 Bytes, ...) - Data: 70 04 00 20 9D 01 00 08 A5 01 00 08 A7 01 00 08 ... -- CPU_WriteMem(640 bytes @ 0x20000180)  returns 0x280 (0007ms, 2030ms total)
T2AC0 3332:943 JLINK_WriteMem(0x20000400, 0x0180 Bytes, ...) - Data: 00 20 AD F8 18 00 AD F8 12 00 FF 20 05 90 01 20 ... -- CPU_WriteMem(384 bytes @ 0x20000400)  returns 0x180 (0005ms, 2035ms total)
T2AC0 3332:948 JLINK_WriteReg(R0, 0x08000000)  returns 0x00 (0000ms, 2035ms total)
T2AC0 3332:948 JLINK_WriteReg(R1, 0x00000400)  returns 0x00 (0000ms, 2035ms total)
T2AC0 3332:948 JLINK_WriteReg(R2, 0x20000180)  returns 0x00 (0000ms, 2035ms total)
T2AC0 3332:949 JLINK_WriteReg(R3, 0x00000000)  returns 0x00 (0000ms, 2036ms total)
T2AC0 3332:949 JLINK_WriteReg(R4, 0x00000000)  returns 0x00 (0000ms, 2036ms total)
T2AC0 3332:949 JLINK_WriteReg(R5, 0x00000000)  returns 0x00 (0000ms, 2036ms total)
T2AC0 3332:949 JLINK_WriteReg(R6, 0x00000000)  returns 0x00 (0000ms, 2036ms total)
T2AC0 3332:949 JLINK_WriteReg(R7, 0x00000000)  returns 0x00 (0000ms, 2036ms total)
T2AC0 3332:949 JLINK_WriteReg(R8, 0x00000000)  returns 0x00 (0000ms, 2036ms total)
T2AC0 3332:949 JLINK_WriteReg(R9, 0x2000017C)  returns 0x00 (0000ms, 2036ms total)
T2AC0 3332:949 JLINK_WriteReg(R10, 0x00000000)  returns 0x00 (0000ms, 2036ms total)
T2AC0 3332:949 JLINK_WriteReg(R11, 0x00000000)  returns 0x00 (0000ms, 2036ms total)
T2AC0 3332:949 JLINK_WriteReg(R12, 0x00000000)  returns 0x00 (0000ms, 2036ms total)
T2AC0 3332:949 JLINK_WriteReg(R13 (SP), 0x20001000)  returns 0x00 (0000ms, 2036ms total)
T2AC0 3332:949 JLINK_WriteReg(R14, 0x20000001)  returns 0x00 (0000ms, 2036ms total)
T2AC0 3332:949 JLINK_WriteReg(R15 (PC), 0x20000108)  returns 0x00 (0000ms, 2036ms total)
T2AC0 3332:949 JLINK_WriteReg(XPSR, 0x01000000)  returns 0x00 (0000ms, 2036ms total)
T2AC0 3332:949 JLINK_WriteReg(MSP, 0x20001000)  returns 0x00 (0000ms, 2036ms total)
T2AC0 3332:949 JLINK_WriteReg(PSP, 0x20001000)  returns 0x00 (0000ms, 2036ms total)
T2AC0 3332:949 JLINK_WriteReg(CFBP, 0x00000000)  returns 0x00 (0000ms, 2036ms total)
T2AC0 3332:949 JLINK_SetBPEx(Addr = 0x20000000, Type = 0xFFFFFFF2)  returns 0x00000006 (0000ms, 2036ms total)
T2AC0 3332:949 JLINK_Go() -- CPU_ReadMem(4 bytes @ 0xE0001000) (0004ms, 2040ms total)
T2AC0 3332:953 JLINK_IsHalted()  returns FALSE (0000ms, 2040ms total)
T2AC0 3332:960 JLINK_ReadReg(R0) -- CPU_ReadMem(2 bytes @ 0x20000000)  returns 0x00000000 (0004ms, 2044ms total)
T2AC0 3332:964 JLINK_ReadReg(R1)  returns 0x00000000 (0000ms, 2044ms total)
T2AC0 3332:964 JLINK_ReadReg(R2)  returns 0x20000580 (0000ms, 2044ms total)
T2AC0 3332:964 JLINK_ReadReg(R3)  returns 0x00000201 (0000ms, 2044ms total)
T2AC0 3332:964 JLINK_ReadReg(R4)  returns 0x00000000 (0000ms, 2044ms total)
T2AC0 3332:964 JLINK_ReadReg(R5)  returns 0x00000000 (0000ms, 2044ms total)
T2AC0 3332:964 JLINK_ReadReg(R6)  returns 0x00000000 (0000ms, 2044ms total)
T2AC0 3332:964 JLINK_ReadReg(R7)  returns 0x00000000 (0000ms, 2044ms total)
T2AC0 3332:964 JLINK_ReadReg(R8)  returns 0x00000000 (0000ms, 2044ms total)
T2AC0 3332:964 JLINK_ReadReg(R9)  returns 0x2000017C (0000ms, 2044ms total)
T2AC0 3332:964 JLINK_ReadReg(R10)  returns 0x00000000 (0000ms, 2044ms total)
T2AC0 3332:964 JLINK_ReadReg(R11)  returns 0x00000000 (0000ms, 2044ms total)
T2AC0 3332:964 JLINK_ReadReg(R12)  returns 0x00000000 (0000ms, 2044ms total)
T2AC0 3332:964 JLINK_ReadReg(R13 (SP))  returns 0x20001000 (0000ms, 2044ms total)
T2AC0 3332:964 JLINK_ReadReg(R14)  returns 0x20000001 (0000ms, 2044ms total)
T2AC0 3332:964 JLINK_ReadReg(R15 (PC))  returns 0x20000000 (0000ms, 2044ms total)
T2AC0 3332:964 JLINK_ReadReg(XPSR)  returns 0x61000000 (0000ms, 2044ms total)
T2AC0 3332:964 JLINK_ReadReg(MSP)  returns 0x20001000 (0000ms, 2044ms total)
T2AC0 3332:964 JLINK_ReadReg(PSP)  returns 0x20001000 (0000ms, 2044ms total)
T2AC0 3332:964 JLINK_ReadReg(CFBP)  returns 0x00000000 (0000ms, 2044ms total)
T2AC0 3332:964 JLINK_ReadReg(FPSCR)  returns 0x00000000 (0005ms, 2049ms total)
T2AC0 3332:969 JLINK_ReadReg(FPS0)  returns 0x00000000 (0000ms, 2049ms total)
T2AC0 3332:969 JLINK_ReadReg(FPS1)  returns 0x00000000 (0000ms, 2049ms total)
T2AC0 3332:969 JLINK_ReadReg(FPS2)  returns 0x00000000 (0000ms, 2049ms total)
T2AC0 3332:969 JLINK_ReadReg(FPS3)  returns 0x00000000 (0000ms, 2049ms total)
T2AC0 3332:969 JLINK_ReadReg(FPS4)  returns 0x00000000 (0000ms, 2049ms total)
T2AC0 3332:969 JLINK_ReadReg(FPS5)  returns 0x00000000 (0000ms, 2049ms total)
T2AC0 3332:969 JLINK_ReadReg(FPS6)  returns 0x00000000 (0000ms, 2049ms total)
T2AC0 3332:969 JLINK_ReadReg(FPS7)  returns 0x00000000 (0000ms, 2049ms total)
T2AC0 3332:969 JLINK_ReadReg(FPS8)  returns 0x00000000 (0000ms, 2049ms total)
T2AC0 3332:969 JLINK_ReadReg(FPS9)  returns 0x00000000 (0000ms, 2049ms total)
T2AC0 3332:969 JLINK_ReadReg(FPS10)  returns 0x00000000 (0000ms, 2049ms total)
T2AC0 3332:969 JLINK_ReadReg(FPS11)  returns 0x00000000 (0000ms, 2049ms total)
T2AC0 3332:969 JLINK_ReadReg(FPS12)  returns 0x00000000 (0000ms, 2049ms total)
T2AC0 3332:969 JLINK_ReadReg(FPS13)  returns 0x00000000 (0000ms, 2049ms total)
T2AC0 3332:969 JLINK_ReadReg(FPS14)  returns 0x00000000 (0000ms, 2049ms total)
T2AC0 3332:969 JLINK_ReadReg(FPS15)  returns 0x00000000 (0000ms, 2049ms total)
T2AC0 3332:969 JLINK_ReadReg(FPS16)  returns 0x00000000 (0000ms, 2049ms total)
T2AC0 3332:969 JLINK_ReadReg(FPS17)  returns 0x00000000 (0000ms, 2049ms total)
T2AC0 3332:969 JLINK_ReadReg(FPS18)  returns 0x00000000 (0000ms, 2049ms total)
T2AC0 3332:969 JLINK_ReadReg(FPS19)  returns 0x00000000 (0000ms, 2049ms total)
T2AC0 3332:969 JLINK_ReadReg(FPS20)  returns 0x00000000 (0000ms, 2049ms total)
T2AC0 3332:969 JLINK_ReadReg(FPS21)  returns 0x00000000 (0000ms, 2049ms total)
T2AC0 3332:969 JLINK_ReadReg(FPS22)  returns 0x00000000 (0001ms, 2050ms total)
T2AC0 3332:970 JLINK_ReadReg(FPS23)  returns 0x00000000 (0000ms, 2050ms total)
T2AC0 3332:970 JLINK_ReadReg(FPS24)  returns 0x00000000 (0000ms, 2050ms total)
T2AC0 3332:970 JLINK_ReadReg(FPS25)  returns 0x00000000 (0000ms, 2050ms total)
T2AC0 3332:970 JLINK_ReadReg(FPS26)  returns 0x00000000 (0000ms, 2050ms total)
T2AC0 3332:970 JLINK_ReadReg(FPS27)  returns 0x00000000 (0000ms, 2050ms total)
T2AC0 3332:970 JLINK_ReadReg(FPS28)  returns 0x00000000 (0000ms, 2050ms total)
T2AC0 3332:970 JLINK_ReadReg(FPS29)  returns 0x00000000 (0000ms, 2050ms total)
T2AC0 3332:970 JLINK_ReadReg(FPS30)  returns 0x00000000 (0000ms, 2050ms total)
T2AC0 3332:970 JLINK_ReadReg(FPS31)  returns 0x00000000 (0000ms, 2050ms total)
T2AC0 3332:995 JLINK_IsHalted()  returns TRUE (0000ms, 2050ms total)
T2AC0 3332:995 JLINK_ReadReg(R15 (PC))  returns 0x20000000 (0000ms, 2050ms total)
T2AC0 3332:995 JLINK_ClrBPEx(BPHandle = 0x00000006)  returns 0x00 (0000ms, 2050ms total)
T2AC0 3332:995 JLINK_ReadReg(R0)  returns 0x00000000 (0000ms, 2050ms total)
T2AC0 3332:995 JLINK_WriteMem(0x20000180, 0x0280 Bytes, ...) - Data: 03 26 BE 40 B5 43 C5 60 D5 79 4E 00 B5 40 C6 68 ... -- CPU_WriteMem(640 bytes @ 0x20000180)  returns 0x280 (0008ms, 2058ms total)
T2AC0 3333:003 JLINK_WriteMem(0x20000400, 0x0180 Bytes, ...) - Data: 00 F0 27 F9 00 25 05 E0 01 21 00 20 00 F0 21 F9 ... -- CPU_WriteMem(384 bytes @ 0x20000400)  returns 0x180 (0006ms, 2064ms total)
T2AC0 3333:009 JLINK_WriteReg(R0, 0x08000400)  returns 0x00 (0000ms, 2064ms total)
T2AC0 3333:009 JLINK_WriteReg(R1, 0x00000400)  returns 0x00 (0000ms, 2064ms total)
T2AC0 3333:009 JLINK_WriteReg(R2, 0x20000180)  returns 0x00 (0000ms, 2064ms total)
T2AC0 3333:009 JLINK_WriteReg(R3, 0x00000201)  returns 0x00 (0000ms, 2064ms total)
T2AC0 3333:009 JLINK_WriteReg(R4, 0x00000000)  returns 0x00 (0000ms, 2064ms total)
T2AC0 3333:009 JLINK_WriteReg(R5, 0x00000000)  returns 0x00 (0000ms, 2064ms total)
T2AC0 3333:009 JLINK_WriteReg(R6, 0x00000000)  returns 0x00 (0000ms, 2064ms total)
T2AC0 3333:009 JLINK_WriteReg(R7, 0x00000000)  returns 0x00 (0000ms, 2064ms total)
T2AC0 3333:009 JLINK_WriteReg(R8, 0x00000000)  returns 0x00 (0000ms, 2064ms total)
T2AC0 3333:009 JLINK_WriteReg(R9, 0x2000017C)  returns 0x00 (0000ms, 2064ms total)
T2AC0 3333:009 JLINK_WriteReg(R10, 0x00000000)  returns 0x00 (0000ms, 2064ms total)
T2AC0 3333:009 JLINK_WriteReg(R11, 0x00000000)  returns 0x00 (0000ms, 2064ms total)
T2AC0 3333:009 JLINK_WriteReg(R12, 0x00000000)  returns 0x00 (0000ms, 2064ms total)
T2AC0 3333:009 JLINK_WriteReg(R13 (SP), 0x20001000)  returns 0x00 (0001ms, 2065ms total)
T2AC0 3333:010 JLINK_WriteReg(R14, 0x20000001)  returns 0x00 (0000ms, 2065ms total)
T2AC0 3333:010 JLINK_WriteReg(R15 (PC), 0x20000108)  returns 0x00 (0000ms, 2065ms total)
T2AC0 3333:010 JLINK_WriteReg(XPSR, 0x01000000)  returns 0x00 (0000ms, 2065ms total)
T2AC0 3333:010 JLINK_WriteReg(MSP, 0x20001000)  returns 0x00 (0000ms, 2065ms total)
T2AC0 3333:010 JLINK_WriteReg(PSP, 0x20001000)  returns 0x00 (0000ms, 2065ms total)
T2AC0 3333:010 JLINK_WriteReg(CFBP, 0x00000000)  returns 0x00 (0000ms, 2065ms total)
T2AC0 3333:010 JLINK_SetBPEx(Addr = 0x20000000, Type = 0xFFFFFFF2)  returns 0x00000007 (0000ms, 2065ms total)
T2AC0 3333:010 JLINK_Go() -- CPU_ReadMem(4 bytes @ 0xE0001000) (0004ms, 2069ms total)
T2AC0 3333:014 JLINK_IsHalted()  returns FALSE (0000ms, 2069ms total)
T2AC0 3333:028 JLINK_IsHalted() -- CPU_ReadMem(2 bytes @ 0x20000000)  returns TRUE (0004ms, 2073ms total)
T2AC0 3333:032 JLINK_ReadReg(R15 (PC))  returns 0x20000000 (0000ms, 2069ms total)
T2AC0 3333:032 JLINK_ClrBPEx(BPHandle = 0x00000007)  returns 0x00 (0000ms, 2069ms total)
T2AC0 3333:032 JLINK_ReadReg(R0)  returns 0x00000000 (0000ms, 2069ms total)
T2AC0 3333:032 JLINK_WriteMem(0x20000180, 0x0280 Bytes, ...) - Data: 00 25 00 24 A8 F1 20 00 C5 B2 7F 2F 02 DD 00 27 ... -- CPU_WriteMem(640 bytes @ 0x20000180)  returns 0x280 (0008ms, 2077ms total)
T2AC0 3333:040 JLINK_WriteMem(0x20000400, 0x0180 Bytes, ...) - Data: 00 BD 00 00 00 14 02 40 00 20 00 40 29 B1 06 4A ... -- CPU_WriteMem(384 bytes @ 0x20000400)  returns 0x180 (0006ms, 2083ms total)
T2AC0 3333:046 JLINK_WriteReg(R0, 0x08000800)  returns 0x00 (0000ms, 2083ms total)
T2AC0 3333:046 JLINK_WriteReg(R1, 0x00000400)  returns 0x00 (0000ms, 2083ms total)
T2AC0 3333:046 JLINK_WriteReg(R2, 0x20000180)  returns 0x00 (0000ms, 2083ms total)
T2AC0 3333:046 JLINK_WriteReg(R3, 0x00000201)  returns 0x00 (0000ms, 2083ms total)
T2AC0 3333:046 JLINK_WriteReg(R4, 0x00000000)  returns 0x00 (0000ms, 2083ms total)
T2AC0 3333:046 JLINK_WriteReg(R5, 0x00000000)  returns 0x00 (0000ms, 2083ms total)
T2AC0 3333:046 JLINK_WriteReg(R6, 0x00000000)  returns 0x00 (0000ms, 2083ms total)
T2AC0 3333:046 JLINK_WriteReg(R7, 0x00000000)  returns 0x00 (0000ms, 2083ms total)
T2AC0 3333:046 JLINK_WriteReg(R8, 0x00000000)  returns 0x00 (0000ms, 2083ms total)
T2AC0 3333:046 JLINK_WriteReg(R9, 0x2000017C)  returns 0x00 (0000ms, 2083ms total)
T2AC0 3333:046 JLINK_WriteReg(R10, 0x00000000)  returns 0x00 (0000ms, 2083ms total)
T2AC0 3333:046 JLINK_WriteReg(R11, 0x00000000)  returns 0x00 (0000ms, 2083ms total)
T2AC0 3333:046 JLINK_WriteReg(R12, 0x00000000)  returns 0x00 (0000ms, 2083ms total)
T2AC0 3333:046 JLINK_WriteReg(R13 (SP), 0x20001000)  returns 0x00 (0000ms, 2083ms total)
T2AC0 3333:046 JLINK_WriteReg(R14, 0x20000001)  returns 0x00 (0000ms, 2083ms total)
T2AC0 3333:046 JLINK_WriteReg(R15 (PC), 0x20000108)  returns 0x00 (0000ms, 2083ms total)
T2AC0 3333:046 JLINK_WriteReg(XPSR, 0x01000000)  returns 0x00 (0000ms, 2083ms total)
T2AC0 3333:046 JLINK_WriteReg(MSP, 0x20001000)  returns 0x00 (0000ms, 2083ms total)
T2AC0 3333:046 JLINK_WriteReg(PSP, 0x20001000)  returns 0x00 (0000ms, 2083ms total)
T2AC0 3333:046 JLINK_WriteReg(CFBP, 0x00000000)  returns 0x00 (0000ms, 2083ms total)
T2AC0 3333:046 JLINK_SetBPEx(Addr = 0x20000000, Type = 0xFFFFFFF2)  returns 0x00000008 (0000ms, 2083ms total)
T2AC0 3333:046 JLINK_Go() -- CPU_ReadMem(4 bytes @ 0xE0001000) (0004ms, 2087ms total)
T2AC0 3333:050 JLINK_IsHalted()  returns FALSE (0001ms, 2088ms total)
T2AC0 3333:080 JLINK_IsHalted() -- CPU_ReadMem(2 bytes @ 0x20000000)  returns TRUE (0004ms, 2091ms total)
T2AC0 3333:084 JLINK_ReadReg(R15 (PC))  returns 0x20000000 (0000ms, 2087ms total)
T2AC0 3333:084 JLINK_ClrBPEx(BPHandle = 0x00000008)  returns 0x00 (0000ms, 2087ms total)
T2AC0 3333:084 JLINK_ReadReg(R0)  returns 0x00000000 (0000ms, 2087ms total)
T2AC0 3333:086 JLINK_WriteMem(0x20000180, 0x0280 Bytes, ...) - Data: B0 F5 A0 4F F1 D1 2A 48 00 68 00 F4 00 30 10 B1 ... -- CPU_WriteMem(640 bytes @ 0x20000180)  returns 0x280 (0008ms, 2095ms total)
T2AC0 3333:094 JLINK_WriteMem(0x20000400, 0x0180 Bytes, ...) - Data: 1E 46 00 21 00 22 00 23 01 89 02 8B 03 8C 4F F6 ... -- CPU_WriteMem(384 bytes @ 0x20000400)  returns 0x180 (0005ms, 2100ms total)
T2AC0 3333:099 JLINK_WriteReg(R0, 0x08000C00)  returns 0x00 (0000ms, 2100ms total)
T2AC0 3333:099 JLINK_WriteReg(R1, 0x00000400)  returns 0x00 (0000ms, 2100ms total)
T2AC0 3333:099 JLINK_WriteReg(R2, 0x20000180)  returns 0x00 (0000ms, 2100ms total)
T2AC0 3333:099 JLINK_WriteReg(R3, 0x00000201)  returns 0x00 (0000ms, 2100ms total)
T2AC0 3333:099 JLINK_WriteReg(R4, 0x00000000)  returns 0x00 (0000ms, 2100ms total)
T2AC0 3333:099 JLINK_WriteReg(R5, 0x00000000)  returns 0x00 (0000ms, 2100ms total)
T2AC0 3333:099 JLINK_WriteReg(R6, 0x00000000)  returns 0x00 (0000ms, 2100ms total)
T2AC0 3333:099 JLINK_WriteReg(R7, 0x00000000)  returns 0x00 (0000ms, 2100ms total)
T2AC0 3333:099 JLINK_WriteReg(R8, 0x00000000)  returns 0x00 (0000ms, 2100ms total)
T2AC0 3333:099 JLINK_WriteReg(R9, 0x2000017C)  returns 0x00 (0000ms, 2100ms total)
T2AC0 3333:099 JLINK_WriteReg(R10, 0x00000000)  returns 0x00 (0000ms, 2100ms total)
T2AC0 3333:099 JLINK_WriteReg(R11, 0x00000000)  returns 0x00 (0000ms, 2100ms total)
T2AC0 3333:099 JLINK_WriteReg(R12, 0x00000000)  returns 0x00 (0000ms, 2100ms total)
T2AC0 3333:099 JLINK_WriteReg(R13 (SP), 0x20001000)  returns 0x00 (0000ms, 2100ms total)
T2AC0 3333:099 JLINK_WriteReg(R14, 0x20000001)  returns 0x00 (0000ms, 2100ms total)
T2AC0 3333:099 JLINK_WriteReg(R15 (PC), 0x20000108)  returns 0x00 (0000ms, 2100ms total)
T2AC0 3333:099 JLINK_WriteReg(XPSR, 0x01000000)  returns 0x00 (0000ms, 2100ms total)
T2AC0 3333:099 JLINK_WriteReg(MSP, 0x20001000)  returns 0x00 (0001ms, 2101ms total)
T2AC0 3333:100 JLINK_WriteReg(PSP, 0x20001000)  returns 0x00 (0000ms, 2101ms total)
T2AC0 3333:100 JLINK_WriteReg(CFBP, 0x00000000)  returns 0x00 (0000ms, 2101ms total)
T2AC0 3333:100 JLINK_SetBPEx(Addr = 0x20000000, Type = 0xFFFFFFF2)  returns 0x00000009 (0000ms, 2101ms total)
T2AC0 3333:100 JLINK_Go() -- CPU_ReadMem(4 bytes @ 0xE0001000) (0003ms, 2104ms total)
T2AC0 3333:103 JLINK_IsHalted()  returns FALSE (0001ms, 2105ms total)
T2AC0 3333:110 JLINK_IsHalted() -- CPU_ReadMem(2 bytes @ 0x20000000)  returns TRUE (0003ms, 2107ms total)
T2AC0 3333:113 JLINK_ReadReg(R15 (PC))  returns 0x20000000 (0000ms, 2104ms total)
T2AC0 3333:113 JLINK_ClrBPEx(BPHandle = 0x00000009)  returns 0x00 (0000ms, 2104ms total)
T2AC0 3333:113 JLINK_ReadReg(R0)  returns 0x00000000 (0000ms, 2104ms total)
T2AC0 3333:115 JLINK_WriteMem(0x20000180, 0x0280 Bytes, ...) - Data: FF 33 1A 40 82 83 82 8B 4F F6 FF 73 03 EA 01 23 ... -- CPU_WriteMem(640 bytes @ 0x20000180)  returns 0x280 (0008ms, 2112ms total)
T2AC0 3333:124 JLINK_WriteMem(0x20000400, 0x0180 Bytes, ...) - Data: 8D F8 02 00 68 46 FF F7 B1 F9 01 21 03 48 00 F0 ... -- CPU_WriteMem(384 bytes @ 0x20000400)  returns 0x180 (0005ms, 2117ms total)
T2AC0 3333:129 JLINK_WriteReg(R0, 0x08001000)  returns 0x00 (0000ms, 2117ms total)
T2AC0 3333:129 JLINK_WriteReg(R1, 0x00000400)  returns 0x00 (0000ms, 2117ms total)
T2AC0 3333:129 JLINK_WriteReg(R2, 0x20000180)  returns 0x00 (0000ms, 2117ms total)
T2AC0 3333:129 JLINK_WriteReg(R3, 0x00000201)  returns 0x00 (0000ms, 2117ms total)
T2AC0 3333:129 JLINK_WriteReg(R4, 0x00000000)  returns 0x00 (0000ms, 2117ms total)
T2AC0 3333:129 JLINK_WriteReg(R5, 0x00000000)  returns 0x00 (0000ms, 2117ms total)
T2AC0 3333:129 JLINK_WriteReg(R6, 0x00000000)  returns 0x00 (0000ms, 2117ms total)
T2AC0 3333:129 JLINK_WriteReg(R7, 0x00000000)  returns 0x00 (0000ms, 2117ms total)
T2AC0 3333:129 JLINK_WriteReg(R8, 0x00000000)  returns 0x00 (0000ms, 2117ms total)
T2AC0 3333:129 JLINK_WriteReg(R9, 0x2000017C)  returns 0x00 (0000ms, 2117ms total)
T2AC0 3333:129 JLINK_WriteReg(R10, 0x00000000)  returns 0x00 (0000ms, 2117ms total)
T2AC0 3333:129 JLINK_WriteReg(R11, 0x00000000)  returns 0x00 (0000ms, 2117ms total)
T2AC0 3333:129 JLINK_WriteReg(R12, 0x00000000)  returns 0x00 (0000ms, 2117ms total)
T2AC0 3333:129 JLINK_WriteReg(R13 (SP), 0x20001000)  returns 0x00 (0000ms, 2117ms total)
T2AC0 3333:129 JLINK_WriteReg(R14, 0x20000001)  returns 0x00 (0000ms, 2117ms total)
T2AC0 3333:129 JLINK_WriteReg(R15 (PC), 0x20000108)  returns 0x00 (0000ms, 2117ms total)
T2AC0 3333:129 JLINK_WriteReg(XPSR, 0x01000000)  returns 0x00 (0000ms, 2117ms total)
T2AC0 3333:129 JLINK_WriteReg(MSP, 0x20001000)  returns 0x00 (0000ms, 2117ms total)
T2AC0 3333:129 JLINK_WriteReg(PSP, 0x20001000)  returns 0x00 (0000ms, 2117ms total)
T2AC0 3333:129 JLINK_WriteReg(CFBP, 0x00000000)  returns 0x00 (0000ms, 2117ms total)
T2AC0 3333:129 JLINK_SetBPEx(Addr = 0x20000000, Type = 0xFFFFFFF2)  returns 0x0000000A (0000ms, 2117ms total)
T2AC0 3333:129 JLINK_Go() -- CPU_ReadMem(4 bytes @ 0xE0001000) (0005ms, 2122ms total)
T2AC0 3333:134 JLINK_IsHalted()  returns FALSE (0000ms, 2122ms total)
T2AC0 3333:140 JLINK_IsHalted() -- CPU_ReadMem(2 bytes @ 0x20000000)  returns TRUE (0004ms, 2126ms total)
T2AC0 3333:144 JLINK_ReadReg(R15 (PC))  returns 0x20000000 (0000ms, 2122ms total)
T2AC0 3333:144 JLINK_ClrBPEx(BPHandle = 0x0000000A)  returns 0x00 (0000ms, 2122ms total)
T2AC0 3333:144 JLINK_ReadReg(R0)  returns 0x00000000 (0000ms, 2122ms total)
T2AC0 3333:155 JLINK_WriteMem(0x20000180, 0x0280 Bytes, ...) - Data: B7 FB F0 F0 04 01 20 09 64 21 01 FB 10 78 A8 89 ... -- CPU_WriteMem(640 bytes @ 0x20000180)  returns 0x280 (0010ms, 2132ms total)
T2AC0 3333:165 JLINK_WriteMem(0x20000400, 0x0180 Bytes, ...) - Data: DA B2 4B 1C D9 B2 0A 29 F7 DB 27 4B 9B 7A 93 42 ... -- CPU_WriteMem(384 bytes @ 0x20000400)  returns 0x180 (0005ms, 2137ms total)
T2AC0 3333:170 JLINK_WriteReg(R0, 0x08001400)  returns 0x00 (0000ms, 2137ms total)
T2AC0 3333:170 JLINK_WriteReg(R1, 0x00000400)  returns 0x00 (0000ms, 2137ms total)
T2AC0 3333:170 JLINK_WriteReg(R2, 0x20000180)  returns 0x00 (0000ms, 2137ms total)
T2AC0 3333:170 JLINK_WriteReg(R3, 0x00000201)  returns 0x00 (0000ms, 2137ms total)
T2AC0 3333:170 JLINK_WriteReg(R4, 0x00000000)  returns 0x00 (0000ms, 2137ms total)
T2AC0 3333:170 JLINK_WriteReg(R5, 0x00000000)  returns 0x00 (0000ms, 2137ms total)
T2AC0 3333:170 JLINK_WriteReg(R6, 0x00000000)  returns 0x00 (0000ms, 2137ms total)
T2AC0 3333:170 JLINK_WriteReg(R7, 0x00000000)  returns 0x00 (0000ms, 2137ms total)
T2AC0 3333:170 JLINK_WriteReg(R8, 0x00000000)  returns 0x00 (0000ms, 2137ms total)
T2AC0 3333:170 JLINK_WriteReg(R9, 0x2000017C)  returns 0x00 (0000ms, 2137ms total)
T2AC0 3333:170 JLINK_WriteReg(R10, 0x00000000)  returns 0x00 (0000ms, 2137ms total)
T2AC0 3333:170 JLINK_WriteReg(R11, 0x00000000)  returns 0x00 (0000ms, 2137ms total)
T2AC0 3333:170 JLINK_WriteReg(R12, 0x00000000)  returns 0x00 (0000ms, 2137ms total)
T2AC0 3333:170 JLINK_WriteReg(R13 (SP), 0x20001000)  returns 0x00 (0000ms, 2137ms total)
T2AC0 3333:170 JLINK_WriteReg(R14, 0x20000001)  returns 0x00 (0000ms, 2137ms total)
T2AC0 3333:170 JLINK_WriteReg(R15 (PC), 0x20000108)  returns 0x00 (0000ms, 2137ms total)
T2AC0 3333:170 JLINK_WriteReg(XPSR, 0x01000000)  returns 0x00 (0000ms, 2137ms total)
T2AC0 3333:170 JLINK_WriteReg(MSP, 0x20001000)  returns 0x00 (0000ms, 2137ms total)
T2AC0 3333:170 JLINK_WriteReg(PSP, 0x20001000)  returns 0x00 (0000ms, 2137ms total)
T2AC0 3333:170 JLINK_WriteReg(CFBP, 0x00000000)  returns 0x00 (0000ms, 2137ms total)
T2AC0 3333:170 JLINK_SetBPEx(Addr = 0x20000000, Type = 0xFFFFFFF2)  returns 0x0000000B (0000ms, 2137ms total)
T2AC0 3333:170 JLINK_Go() -- CPU_ReadMem(4 bytes @ 0xE0001000) (0004ms, 2141ms total)
T2AC0 3333:174 JLINK_IsHalted()  returns FALSE (0000ms, 2141ms total)
T2AC0 3333:184 JLINK_IsHalted() -- CPU_ReadMem(2 bytes @ 0x20000000)  returns TRUE (0004ms, 2145ms total)
T2AC0 3333:188 JLINK_ReadReg(R15 (PC))  returns 0x20000000 (0000ms, 2141ms total)
T2AC0 3333:188 JLINK_ClrBPEx(BPHandle = 0x0000000B)  returns 0x00 (0000ms, 2141ms total)
T2AC0 3333:188 JLINK_ReadReg(R0)  returns 0x00000000 (0000ms, 2141ms total)
T2AC0 3333:189 JLINK_WriteMem(0x20000180, 0x0280 Bytes, ...) - Data: 68 3A 00 00 59 61 77 3A 00 00 00 00 00 00 00 00 ... -- CPU_WriteMem(640 bytes @ 0x20000180)  returns 0x280 (0008ms, 2149ms total)
T2AC0 3333:197 JLINK_WriteMem(0x20000400, 0x0180 Bytes, ...) - Data: 04 3F 04 04 3F 04 04 00 00 70 88 FC 08 30 00 00 ... -- CPU_WriteMem(384 bytes @ 0x20000400)  returns 0x180 (0006ms, 2155ms total)
T2AC0 3333:203 JLINK_WriteReg(R0, 0x08001800)  returns 0x00 (0000ms, 2155ms total)
T2AC0 3333:203 JLINK_WriteReg(R1, 0x00000400)  returns 0x00 (0000ms, 2155ms total)
T2AC0 3333:203 JLINK_WriteReg(R2, 0x20000180)  returns 0x00 (0000ms, 2155ms total)
T2AC0 3333:203 JLINK_WriteReg(R3, 0x00000201)  returns 0x00 (0000ms, 2155ms total)
T2AC0 3333:203 JLINK_WriteReg(R4, 0x00000000)  returns 0x00 (0000ms, 2155ms total)
T2AC0 3333:203 JLINK_WriteReg(R5, 0x00000000)  returns 0x00 (0000ms, 2155ms total)
T2AC0 3333:203 JLINK_WriteReg(R6, 0x00000000)  returns 0x00 (0000ms, 2155ms total)
T2AC0 3333:203 JLINK_WriteReg(R7, 0x00000000)  returns 0x00 (0000ms, 2155ms total)
T2AC0 3333:203 JLINK_WriteReg(R8, 0x00000000)  returns 0x00 (0000ms, 2155ms total)
T2AC0 3333:203 JLINK_WriteReg(R9, 0x2000017C)  returns 0x00 (0000ms, 2155ms total)
T2AC0 3333:203 JLINK_WriteReg(R10, 0x00000000)  returns 0x00 (0000ms, 2155ms total)
T2AC0 3333:203 JLINK_WriteReg(R11, 0x00000000)  returns 0x00 (0000ms, 2155ms total)
T2AC0 3333:203 JLINK_WriteReg(R12, 0x00000000)  returns 0x00 (0000ms, 2155ms total)
T2AC0 3333:203 JLINK_WriteReg(R13 (SP), 0x20001000)  returns 0x00 (0000ms, 2155ms total)
T2AC0 3333:203 JLINK_WriteReg(R14, 0x20000001)  returns 0x00 (0000ms, 2155ms total)
T2AC0 3333:203 JLINK_WriteReg(R15 (PC), 0x20000108)  returns 0x00 (0000ms, 2155ms total)
T2AC0 3333:203 JLINK_WriteReg(XPSR, 0x01000000)  returns 0x00 (0000ms, 2155ms total)
T2AC0 3333:204 JLINK_WriteReg(MSP, 0x20001000)  returns 0x00 (0000ms, 2156ms total)
T2AC0 3333:204 JLINK_WriteReg(PSP, 0x20001000)  returns 0x00 (0000ms, 2156ms total)
T2AC0 3333:204 JLINK_WriteReg(CFBP, 0x00000000)  returns 0x00 (0000ms, 2156ms total)
T2AC0 3333:204 JLINK_SetBPEx(Addr = 0x20000000, Type = 0xFFFFFFF2)  returns 0x0000000C (0000ms, 2156ms total)
T2AC0 3333:204 JLINK_Go() -- CPU_ReadMem(4 bytes @ 0xE0001000) (0004ms, 2160ms total)
T2AC0 3333:208 JLINK_IsHalted()  returns FALSE (0000ms, 2160ms total)
T2AC0 3333:220 JLINK_IsHalted() -- CPU_ReadMem(2 bytes @ 0x20000000)  returns TRUE (0004ms, 2164ms total)
T2AC0 3333:224 JLINK_ReadReg(R15 (PC))  returns 0x20000000 (0000ms, 2160ms total)
T2AC0 3333:224 JLINK_ClrBPEx(BPHandle = 0x0000000C)  returns 0x00 (0000ms, 2160ms total)
T2AC0 3333:224 JLINK_ReadReg(R0)  returns 0x00000000 (0000ms, 2160ms total)
T2AC0 3333:227 JLINK_WriteMem(0x20000180, 0x0280 Bytes, ...) - Data: 00 00 80 60 00 00 00 00 00 00 80 40 20 10 08 00 ... -- CPU_WriteMem(640 bytes @ 0x20000180)  returns 0x280 (0008ms, 2168ms total)
T2AC0 3333:235 JLINK_WriteMem(0x20000400, 0x0180 Bytes, ...) - Data: 00 0E 11 20 20 20 11 00 00 00 00 80 80 88 F8 00 ... -- CPU_WriteMem(384 bytes @ 0x20000400)  returns 0x180 (0006ms, 2174ms total)
T2AC0 3333:241 JLINK_WriteReg(R0, 0x08001C00)  returns 0x00 (0000ms, 2174ms total)
T2AC0 3333:241 JLINK_WriteReg(R1, 0x00000400)  returns 0x00 (0000ms, 2174ms total)
T2AC0 3333:241 JLINK_WriteReg(R2, 0x20000180)  returns 0x00 (0000ms, 2174ms total)
T2AC0 3333:241 JLINK_WriteReg(R3, 0x00000201)  returns 0x00 (0000ms, 2174ms total)
T2AC0 3333:241 JLINK_WriteReg(R4, 0x00000000)  returns 0x00 (0000ms, 2174ms total)
T2AC0 3333:241 JLINK_WriteReg(R5, 0x00000000)  returns 0x00 (0000ms, 2174ms total)
